Freq.	V(n009)
1.00000000000000e+000	(-4.36830833162615e-002dB,-1.28939326392139e-002°)
1.00230523807790e+000	(-4.36830833455126e-002dB,-1.29236562237103e-002°)
1.00461579027840e+000	(-4.36830833748984e-002dB,-1.29534483281452e-002°)
1.00693166885180e+000	(-4.36830834044500e-002dB,-1.29833091104737e-002°)
1.00925288607668e+000	(-4.36830834341207e-002dB,-1.30132387290148e-002°)
1.01157945425990e+000	(-4.36830834639272e-002dB,-1.30432373424523e-002°)
1.01391138573668e+000	(-4.36830834938344e-002dB,-1.30733051098356e-002°)
1.01624869287070e+000	(-4.36830835239336e-002dB,-1.31034421905812e-002°)
1.01859138805412e+000	(-4.36830835541500e-002dB,-1.31336487444732e-002°)
1.02093948370768e+000	(-4.36830835844982e-002dB,-1.31639249316633e-002°)
1.02329299228075e+000	(-4.36830836150015e-002dB,-1.31942709126729e-002°)
1.02565192625141e+000	(-4.36830836456812e-002dB,-1.32246868483935e-002°)
1.02801629812647e+000	(-4.36830836764675e-002dB,-1.32551729000873e-002°)
1.03038612044162e+000	(-4.36830837073624e-002dB,-1.32857292293884e-002°)
1.03276140576140e+000	(-4.36830837384210e-002dB,-1.33163559983032e-002°)
1.03514216667934e+000	(-4.36830837696474e-002dB,-1.33470533692121e-002°)
1.03752841581801e+000	(-4.36830838010258e-002dB,-1.33778215048692e-002°)
1.03992016582906e+000	(-4.36830838325274e-002dB,-1.34086605684042e-002°)
1.04231742939330e+000	(-4.36830838641472e-002dB,-1.34395707233230e-002°)
1.04472021922080e+000	(-4.36830838959405e-002dB,-1.34705521335076e-002°)
1.04712854805090e+000	(-4.36830839278637e-002dB,-1.35016049632188e-002°)
1.04954242865232e+000	(-4.36830839599671e-002dB,-1.35327293770955e-002°)
1.05196187382322e+000	(-4.36830839922120e-002dB,-1.35639255401562e-002°)
1.05438689639126e+000	(-4.36830840245946e-002dB,-1.35951936178000e-002°)
1.05681750921366e+000	(-4.36830840571235e-002dB,-1.36265337758071e-002°)
1.05925372517729e+000	(-4.36830840897978e-002dB,-1.36579461803397e-002°)
1.06169555719872e+000	(-4.36830841226349e-002dB,-1.36894309979434e-002°)
1.06414301822431e+000	(-4.36830841556096e-002dB,-1.37209883955475e-002°)
1.06659612123026e+000	(-4.36830841887627e-002dB,-1.37526185404661e-002°)
1.06905487922266e+000	(-4.36830842220883e-002dB,-1.37843216003995e-002°)
1.07151930523761e+000	(-4.36830842554749e-002dB,-1.38160977434338e-002°)
1.07398941234124e+000	(-4.36830842890835e-002dB,-1.38479471380427e-002°)
1.07646521362983e+000	(-4.36830843228452e-002dB,-1.38798699530893e-002°)
1.07894672222983e+000	(-4.36830843567591e-002dB,-1.39118663578243e-002°)
1.08143395129794e+000	(-4.36830843908338e-002dB,-1.39439365218901e-002°)
1.08392691402120e+000	(-4.36830844250433e-002dB,-1.39760806153192e-002°)
1.08642562361706e+000	(-4.36830844594563e-002dB,-1.40082988085364e-002°)
1.08893009333343e+000	(-4.36830844939847e-002dB,-1.40405912723596e-002°)
1.09144033644876e+000	(-4.36830845286739e-002dB,-1.40729581780000e-002°)
1.09395636627209e+000	(-4.36830845635395e-002dB,-1.41053996970637e-002°)
1.09647819614318e+000	(-4.36830845985156e-002dB,-1.41379160015526e-002°)
1.09900583943252e+000	(-4.36830846337156e-002dB,-1.41705072638646e-002°)
1.10153930954141e+000	(-4.36830846690610e-002dB,-1.42031736567957e-002°)
1.10407861990207e+000	(-4.36830847045692e-002dB,-1.42359153535395e-002°)
1.10662378397766e+000	(-4.36830847402412e-002dB,-1.42687325276895e-002°)
1.10917481526240e+000	(-4.36830847760915e-002dB,-1.43016253532389e-002°)
1.11173172728159e+000	(-4.36830848120746e-002dB,-1.43345940045823e-002°)
1.11429453359173e+000	(-4.36830848482418e-002dB,-1.43676386565163e-002°)
1.11686324778056e+000	(-4.36830848845864e-002dB,-1.44007594842402e-002°)
1.11943788346715e+000	(-4.36830849211181e-002dB,-1.44339566633571e-002°)
1.12201845430196e+000	(-4.36830849577447e-002dB,-1.44672303698758e-002°)
1.12460497396692e+000	(-4.36830849946185e-002dB,-1.45005807802095e-002°)
1.12719745617551e+000	(-4.36830850316154e-002dB,-1.45340080711791e-002°)
1.12979591467280e+000	(-4.36830850687819e-002dB,-1.45675124200128e-002°)
1.13240036323556e+000	(-4.36830851061422e-002dB,-1.46010940043471e-002°)
1.13501081567231e+000	(-4.36830851436750e-002dB,-1.46347530022286e-002°)
1.13762728582343e+000	(-4.36830851813930e-002dB,-1.46684895921134e-002°)
1.14024978756117e+000	(-4.36830852192514e-002dB,-1.47023039528698e-002°)
1.14287833478977e+000	(-4.36830852572902e-002dB,-1.47361962637786e-002°)
1.14551294144553e+000	(-4.36830852954918e-002dB,-1.47701667045328e-002°)
1.14815362149688e+000	(-4.36830853339114e-002dB,-1.48042154552406e-002°)
1.15080038894443e+000	(-4.36830853724842e-002dB,-1.48383426964249e-002°)
1.15345325782109e+000	(-4.36830854112266e-002dB,-1.48725486090254e-002°)
1.15611224219210e+000	(-4.36830854501579e-002dB,-1.49068333743983e-002°)
1.15877735615512e+000	(-4.36830854892948e-002dB,-1.49411971743175e-002°)
1.16144861384034e+000	(-4.36830855286022e-002dB,-1.49756401909767e-002°)
1.16412602941049e+000	(-4.36830855680414e-002dB,-1.50101626069898e-002°)
1.16680961706096e+000	(-4.36830856077162e-002dB,-1.50447646053907e-002°)
1.16949939101987e+000	(-4.36830856475411e-002dB,-1.50794463696359e-002°)
1.17219536554813e+000	(-4.36830856875561e-002dB,-1.51142080836045e-002°)
1.17489755493953e+000	(-4.36830857277493e-002dB,-1.51490499316002e-002°)
1.17760597352080e+000	(-4.36830857681665e-002dB,-1.51839720983502e-002°)
1.18032063565173e+000	(-4.36830858087629e-002dB,-1.52189747690092e-002°)
1.18304155572516e+000	(-4.36830858495125e-002dB,-1.52540581291573e-002°)
1.18576874816716e+000	(-4.36830858904617e-002dB,-1.52892223648030e-002°)
1.18850222743702e+000	(-4.36830859316164e-002dB,-1.53244676623839e-002°)
1.19124200802737e+000	(-4.36830859729484e-002dB,-1.53597942087669e-002°)
1.19398810446427e+000	(-4.36830860144927e-002dB,-1.53952021912497e-002°)
1.19674053130724e+000	(-4.36830860562144e-002dB,-1.54306917975619e-002°)
1.19949930314938e+000	(-4.36830860981008e-002dB,-1.54662632158661e-002°)
1.20226443461741e+000	(-4.36830861401986e-002dB,-1.55019166347584e-002°)
1.20503594037179e+000	(-4.36830861825124e-002dB,-1.55376522432694e-002°)
1.20781383510678e+000	(-4.36830862250249e-002dB,-1.55734702308660e-002°)
1.21059813355048e+000	(-4.36830862676857e-002dB,-1.56093707874515e-002°)
1.21338885046497e+000	(-4.36830863105511e-002dB,-1.56453541033671e-002°)
1.21618600064636e+000	(-4.36830863536713e-002dB,-1.56814203693926e-002°)
1.21898959892486e+000	(-4.36830863969679e-002dB,-1.57175697767481e-002°)
1.22179966016487e+000	(-4.36830864404515e-002dB,-1.57538025170937e-002°)
1.22461619926504e+000	(-4.36830864841009e-002dB,-1.57901187825323e-002°)
1.22743923115840e+000	(-4.36830865280081e-002dB,-1.58265187656087e-002°)
1.23026877081238e+000	(-4.36830865720859e-002dB,-1.58630026593123e-002°)
1.23310483322890e+000	(-4.36830866163613e-002dB,-1.58995706570769e-002°)
1.23594743344451e+000	(-4.36830866608714e-002dB,-1.59362229527823e-002°)
1.23879658653036e+000	(-4.36830867055491e-002dB,-1.59729597407555e-002°)
1.24165230759241e+000	(-4.36830867504778e-002dB,-1.60097812157711e-002°)
1.24451461177138e+000	(-4.36830867955868e-002dB,-1.60466875730532e-002°)
1.24738351424294e+000	(-4.36830868409051e-002dB,-1.60836790082755e-002°)
1.25025903021771e+000	(-4.36830868864580e-002dB,-1.61207557175627e-002°)
1.25314117494141e+000	(-4.36830869322144e-002dB,-1.61579178974922e-002°)
1.25602996369487e+000	(-4.36830869781268e-002dB,-1.61951657450935e-002°)
1.25892541179416e+000	(-4.36830870242942e-002dB,-1.62324994578521e-002°)
1.26182753459066e+000	(-4.36830870706631e-002dB,-1.62699192337064e-002°)
1.26473634747115e+000	(-4.36830871172995e-002dB,-1.63074252710533e-002°)
1.26765186585784e+000	(-4.36830871640736e-002dB,-1.63450177687456e-002°)
1.27057410520854e+000	(-4.36830872111074e-002dB,-1.63826969260948e-002°)
1.27350308101666e+000	(-4.36830872583302e-002dB,-1.64204629428725e-002°)
1.27643880881134e+000	(-4.36830873058253e-002dB,-1.64583160193100e-002°)
1.27938130415752e+000	(-4.36830873534668e-002dB,-1.64962563561010e-002°)
1.28233058265602e+000	(-4.36830874013699e-002dB,-1.65342841544009e-002°)
1.28528665994361e+000	(-4.36830874494979e-002dB,-1.65723996158294e-002°)
1.28824955169313e+000	(-4.36830874978372e-002dB,-1.66106029424713e-002°)
1.29121927361353e+000	(-4.36830875463801e-002dB,-1.66488943368763e-002°)
1.29419584144998e+000	(-4.36830875951991e-002dB,-1.66872740020615e-002°)
1.29717927098395e+000	(-4.36830876442391e-002dB,-1.67257421415127e-002°)
1.30016957803328e+000	(-4.36830876934362e-002dB,-1.67642989591838e-002°)
1.30316677845229e+000	(-4.36830877429026e-002dB,-1.68029446594990e-002°)
1.30617088813183e+000	(-4.36830877926056e-002dB,-1.68416794473543e-002°)
1.30918192299940e+000	(-4.36830878425188e-002dB,-1.68805035281174e-002°)
1.31219989901920e+000	(-4.36830878926967e-002dB,-1.69194171076300e-002°)
1.31522483219223e+000	(-4.36830879431003e-002dB,-1.69584203922078e-002°)
1.31825673855640e+000	(-4.36830879936823e-002dB,-1.69975135886423e-002°)
1.32129563418657e+000	(-4.36830880445502e-002dB,-1.70366969042021e-002°)
1.32434153519466e+000	(-4.36830880956440e-002dB,-1.70759705466328e-002°)
1.32739445772973e+000	(-4.36830881469490e-002dB,-1.71153347241597e-002°)
1.33045441797808e+000	(-4.36830881985215e-002dB,-1.71547896454875e-002°)
1.33352143216332e+000	(-4.36830882503208e-002dB,-1.71943355198024e-002°)
1.33659551654643e+000	(-4.36830883023537e-002dB,-1.72339725567722e-002°)
1.33967668742593e+000	(-4.36830883546424e-002dB,-1.72737009665496e-002°)
1.34276496113786e+000	(-4.36830884071376e-002dB,-1.73135209597696e-002°)
1.34586035405594e+000	(-4.36830884599235e-002dB,-1.73534327475544e-002°)
1.34896288259164e+000	(-4.36830885129159e-002dB,-1.73934365415124e-002°)
1.35207256319427e+000	(-4.36830885661903e-002dB,-1.74335325537390e-002°)
1.35518941235103e+000	(-4.36830886196712e-002dB,-1.74737209968202e-002°)
1.35831344658715e+000	(-4.36830886734243e-002dB,-1.75140020838308e-002°)
1.36144468246594e+000	(-4.36830887273956e-002dB,-1.75543760283369e-002°)
1.36458313658892e+000	(-4.36830887816373e-002dB,-1.75948430443972e-002°)
1.36772882559584e+000	(-4.36830888361183e-002dB,-1.76354033465639e-002°)
1.37088176616484e+000	(-4.36830888908639e-002dB,-1.76760571498839e-002°)
1.37404197501251e+000	(-4.36830889458480e-002dB,-1.77168046698991e-002°)
1.37720946889394e+000	(-4.36830890011344e-002dB,-1.77576461226492e-002°)
1.38038426460288e+000	(-4.36830890565924e-002dB,-1.77985817246711e-002°)
1.38356637897177e+000	(-4.36830891123441e-002dB,-1.78396116930018e-002°)
1.38675582887188e+000	(-4.36830891683923e-002dB,-1.78807362451777e-002°)
1.38995263121334e+000	(-4.36830892246557e-002dB,-1.79219555992375e-002°)
1.39315680294529e+000	(-4.36830892811924e-002dB,-1.79632699737218e-002°)
1.39636836105593e+000	(-4.36830893379976e-002dB,-1.80046795876753e-002°)
1.39958732257261e+000	(-4.36830893950450e-002dB,-1.80461846606477e-002°)
1.40281370456195e+000	(-4.36830894523765e-002dB,-1.80877854126947e-002°)
1.40604752412990e+000	(-4.36830895099415e-002dB,-1.81294820643796e-002°)
1.40928879842186e+000	(-4.36830895678224e-002dB,-1.81712748367738e-002°)
1.41253754462274e+000	(-4.36830896259399e-002dB,-1.82131639514582e-002°)
1.41579377995707e+000	(-4.36830896843200e-002dB,-1.82551496305251e-002°)
1.41905752168908e+000	(-4.36830897429841e-002dB,-1.82972320965777e-002°)
1.42232878712281e+000	(-4.36830898018681e-002dB,-1.83394115727338e-002°)
1.42560759360218e+000	(-4.36830898611060e-002dB,-1.83816882826245e-002°)
1.42889395851109e+000	(-4.36830899205754e-002dB,-1.84240624503966e-002°)
1.43218789927353e+000	(-4.36830899802920e-002dB,-1.84665343007140e-002°)
1.43548943335364e+000	(-4.36830900403595e-002dB,-1.85091040587579e-002°)
1.43879857825583e+000	(-4.36830901006227e-002dB,-1.85517719502290e-002°)
1.44211535152486e+000	(-4.36830901611980e-002dB,-1.85945382013485e-002°)
1.44543977074592e+000	(-4.36830902220922e-002dB,-1.86374030388586e-002°)
1.44877185354475e+000	(-4.36830902832393e-002dB,-1.86803666900240e-002°)
1.45211161758773e+000	(-4.36830903446249e-002dB,-1.87234293826345e-002°)
1.45545908058195e+000	(-4.36830904063729e-002dB,-1.87665913450034e-002°)
1.45881426027534e+000	(-4.36830904683352e-002dB,-1.88098528059716e-002°)
1.46217717445671e+000	(-4.36830905305939e-002dB,-1.88532139949071e-002°)
1.46554784095590e+000	(-4.36830905931639e-002dB,-1.88966751417068e-002°)
1.46892627764385e+000	(-4.36830906560352e-002dB,-1.89402364767966e-002°)
1.47231250243271e+000	(-4.36830907191808e-002dB,-1.89838982311350e-002°)
1.47570653327588e+000	(-4.36830907826123e-002dB,-1.90276606362118e-002°)
1.47910838816819e+000	(-4.36830908463404e-002dB,-1.90715239240516e-002°)
1.48251808514594e+000	(-4.36830909103418e-002dB,-1.91154883272127e-002°)
1.48593564228699e+000	(-4.36830909746494e-002dB,-1.91595540787902e-002°)
1.48936107771090e+000	(-4.36830910392973e-002dB,-1.92037214124159e-002°)
1.49279440957898e+000	(-4.36830911041835e-002dB,-1.92479905622613e-002°)
1.49623565609442e+000	(-4.36830911693867e-002dB,-1.92923617630365e-002°)
1.49968483550236e+000	(-4.36830912348923e-002dB,-1.93368352499933e-002°)
1.50314196609001e+000	(-4.36830913007294e-002dB,-1.93814112589258e-002°)
1.50660706618673e+000	(-4.36830913668145e-002dB,-1.94260900261716e-002°)
1.51008015416413e+000	(-4.36830914332544e-002dB,-1.94708717886128e-002°)
1.51356124843619e+000	(-4.36830915000054e-002dB,-1.95157567836780e-002°)
1.51705036745932e+000	(-4.36830915670171e-002dB,-1.95607452493433e-002°)
1.52054752973248e+000	(-4.36830916343680e-002dB,-1.96058374241323e-002°)
1.52405275379728e+000	(-4.36830917020349e-002dB,-1.96510335471201e-002°)
1.52756605823806e+000	(-4.36830917699925e-002dB,-1.96963338579315e-002°)
1.53108746168202e+000	(-4.36830918382699e-002dB,-1.97417385967443e-002°)
1.53461698279928e+000	(-4.36830919068808e-002dB,-1.97872480042905e-002°)
1.53815464030302e+000	(-4.36830919757921e-002dB,-1.98328623218552e-002°)
1.54170045294954e+000	(-4.36830920450378e-002dB,-1.98785817912822e-002°)
1.54525443953840e+000	(-4.36830921145616e-002dB,-1.99244066549708e-002°)
1.54881661891247e+000	(-4.36830921844761e-002dB,-1.99703371558804e-002°)
1.55238700995807e+000	(-4.36830922546328e-002dB,-2.00163735375297e-002°)
1.55596563160506e+000	(-4.36830923251481e-002dB,-2.00625160439990e-002°)
1.55955250282694e+000	(-4.36830923960239e-002dB,-2.01087649199311e-002°)
1.56314764264094e+000	(-4.36830924671760e-002dB,-2.01551204105331e-002°)
1.56675107010813e+000	(-4.36830925387032e-002dB,-2.02015827615773e-002°)
1.57036280433354e+000	(-4.36830926105143e-002dB,-2.02481522194023e-002°)
1.57398286446620e+000	(-4.36830926826976e-002dB,-2.02948290309151e-002°)
1.57761126969933e+000	(-4.36830927551910e-002dB,-2.03416134435907e-002°)
1.58124803927037e+000	(-4.36830928280363e-002dB,-2.03885057054764e-002°)
1.58489319246110e+000	(-4.36830929011539e-002dB,-2.04355060651896e-002°)
1.58854674859776e+000	(-4.36830929747047e-002dB,-2.04826147719219e-002°)
1.59220872705115e+000	(-4.36830930485259e-002dB,-2.05298320754389e-002°)
1.59587914723672e+000	(-4.36830931226825e-002dB,-2.05771582260820e-002°)
1.59955802861465e+000	(-4.36830931972568e-002dB,-2.06245934747692e-002°)
1.60324539069002e+000	(-4.36830932721102e-002dB,-2.06721380729983e-002°)
1.60694125301286e+000	(-4.36830933473377e-002dB,-2.07197922728458e-002°)
1.61064563517825e+000	(-4.36830934228957e-002dB,-2.07675563269691e-002°)
1.61435855682647e+000	(-4.36830934988220e-002dB,-2.08154304886090e-002°)
1.61808003764305e+000	(-4.36830935750594e-002dB,-2.08634150115893e-002°)
1.62181009735891e+000	(-4.36830936516952e-002dB,-2.09115101503194e-002°)
1.62554875575047e+000	(-4.36830937286566e-002dB,-2.09597161597946e-002°)
1.62929603263970e+000	(-4.36830938060018e-002dB,-2.10080332955983e-002°)
1.63305194789432e+000	(-4.36830938836765e-002dB,-2.10564618139036e-002°)
1.63681652142779e+000	(-4.36830939617011e-002dB,-2.11050019714734e-002°)
1.64058977319952e+000	(-4.36830940400950e-002dB,-2.11536540256626e-002°)
1.64437172321491e+000	(-4.36830941188629e-002dB,-2.12024182344200e-002°)
1.64816239152549e+000	(-4.36830941979895e-002dB,-2.12512948562883e-002°)
1.65196179822900e+000	(-4.36830942774960e-002dB,-2.13002841504064e-002°)
1.65576996346951e+000	(-4.36830943573310e-002dB,-2.13493863765108e-002°)
1.65958690743754e+000	(-4.36830944375392e-002dB,-2.13986017949366e-002°)
1.66341265037015e+000	(-4.36830945181322e-002dB,-2.14479306666193e-002°)
1.66724721255104e+000	(-4.36830945991341e-002dB,-2.14973732530953e-002°)
1.67109061431069e+000	(-4.36830946804898e-002dB,-2.15469298165042e-002°)
1.67494287602642e+000	(-4.36830947622012e-002dB,-2.15966006195903e-002°)
1.67880401812254e+000	(-4.36830948442857e-002dB,-2.16463859257033e-002°)
1.68267406107045e+000	(-4.36830949267764e-002dB,-2.16962859987993e-002°)
1.68655302538872e+000	(-4.36830950096014e-002dB,-2.17463011034445e-002°)
1.69044093164324e+000	(-4.36830950928470e-002dB,-2.17964315048128e-002°)
1.69433780044731e+000	(-4.36830951764396e-002dB,-2.18466774686918e-002°)
1.69824365246172e+000	(-4.36830952604596e-002dB,-2.18970392614800e-002°)
1.70215850839493e+000	(-4.36830953448692e-002dB,-2.19475171501904e-002°)
1.70608238900310e+000	(-4.36830954296452e-002dB,-2.19981114024525e-002°)
1.71001531509027e+000	(-4.36830955148301e-002dB,-2.20488222865110e-002°)
1.71395730750840e+000	(-4.36830956004115e-002dB,-2.20996500712308e-002°)
1.71790838715757e+000	(-4.36830956863718e-002dB,-2.21505950260954e-002°)
1.72186857498599e+000	(-4.36830957727324e-002dB,-2.22016574212100e-002°)
1.72583789199018e+000	(-4.36830958594797e-002dB,-2.22528375273022e-002°)
1.72981635921508e+000	(-4.36830959466564e-002dB,-2.23041356157237e-002°)
1.73380399775412e+000	(-4.36830960342324e-002dB,-2.23555519584524e-002°)
1.73780082874935e+000	(-4.36830961221824e-002dB,-2.24070868280921e-002°)
1.74180687339159e+000	(-4.36830962105599e-002dB,-2.24587404978752e-002°)
1.74582215292048e+000	(-4.36830962993125e-002dB,-2.25105132416656e-002°)
1.74984668862464e+000	(-4.36830963885157e-002dB,-2.25624053339561e-002°)
1.75388050184174e+000	(-4.36830964781357e-002dB,-2.26144170498738e-002°)
1.75792361395867e+000	(-4.36830965681375e-002dB,-2.26665486651797e-002°)
1.76197604641161e+000	(-4.36830966585755e-002dB,-2.27188004562704e-002°)
1.76603782068614e+000	(-4.36830967494225e-002dB,-2.27711727001797e-002°)
1.77010895831740e+000	(-4.36830968406746e-002dB,-2.28236656745796e-002°)
1.77418948089014e+000	(-4.36830969323735e-002dB,-2.28762796577833e-002°)
1.77827941003890e+000	(-4.36830970244697e-002dB,-2.29290149287448e-002°)
1.78237876744807e+000	(-4.36830971170283e-002dB,-2.29818717670604e-002°)
1.78648757485203e+000	(-4.36830972099939e-002dB,-2.30348504529731e-002°)
1.79060585403527e+000	(-4.36830973033918e-002dB,-2.30879512673698e-002°)
1.79473362683250e+000	(-4.36830973971909e-002dB,-2.31411744917856e-002°)
1.79887091512876e+000	(-4.36830974914650e-002dB,-2.31945204084057e-002°)
1.80301774085955e+000	(-4.36830975861218e-002dB,-2.32479893000636e-002°)
1.80717412601090e+000	(-4.36830976812972e-002dB,-2.33015814502467e-002°)
1.81134009261958e+000	(-4.36830977768602e-002dB,-2.33552971430955e-002°)
1.81551566277311e+000	(-4.36830978728594e-002dB,-2.34091366634046e-002°)
1.81970085860996e+000	(-4.36830979693122e-002dB,-2.34631002966264e-002°)
1.82389570231961e+000	(-4.36830980662059e-002dB,-2.35171883288702e-002°)
1.82810021614272e+000	(-4.36830981635707e-002dB,-2.35714010469057e-002°)
1.83231442237119e+000	(-4.36830982613348e-002dB,-2.36257387381633e-002°)
1.83653834334832e+000	(-4.36830983596077e-002dB,-2.36802016907356e-002°)
1.84077200146893e+000	(-4.36830984582915e-002dB,-2.37347901933808e-002°)
1.84501541917945e+000	(-4.36830985574464e-002dB,-2.37895045355200e-002°)
1.84926861897805e+000	(-4.36830986570742e-002dB,-2.38443450072450e-002°)
1.85353162341479e+000	(-4.36830987571508e-002dB,-2.38993118993134e-002°)
1.85780445509167e+000	(-4.36830988576829e-002dB,-2.39544055031546e-002°)
1.86208713666284e+000	(-4.36830989586598e-002dB,-2.40096261108697e-002°)
1.86637969083464e+000	(-4.36830990601582e-002dB,-2.40649740152320e-002°)
1.87068214036577e+000	(-4.36830991620792e-002dB,-2.41204495096913e-002°)
